T154C 000:004.565   SEGGER J-Link V6.70e Log File
T154C 000:004.668   DLL Compiled: Apr 17 2020 17:55:05
T154C 000:004.682   Logging started @ 2024-10-29 06:42
T154C 000:004.703 JLINK_SetWarnOutHandler(...)
T154C 000:004.718 - 0.022ms
T154C 000:004.738 JLINK_OpenEx(...)
T154C 000:023.477   Firmware: J-Link V9 compiled Feb  2 2021 16:34:10
T154C 000:023.718   Decompressing FW timestamp took 126 us
T154C 000:031.624   Hardware: V9.40
T154C 000:031.669   S/N: 59401057
T154C 000:031.689   OEM: SEGGER
T154C 000:031.710   Feature(s): RDI, GDB, FlashDL, FlashBP, JFlash
T154C 000:033.079   TELNET listener socket opened on port 19021
T154C 000:033.335   WEBSRV Starting webserver
T154C 000:033.406   WEBSRV Failed to put socket into listener state (port 19080)
T154C 000:033.528   WEBSRV Webserver running on local port 19081
T154C 000:033.549 - 28.817ms returns "O.K."
T154C 000:033.608 JLINK_GetEmuCaps()
T154C 000:033.625 - 0.023ms returns 0xB9FF7BBF
T154C 000:033.643 JLINK_TIF_GetAvailable(...)
T154C 000:033.987 - 0.361ms
T154C 000:034.038 JLINK_SetErrorOutHandler(...)
T154C 000:034.052 - 0.021ms
T154C 000:034.077 JLINK_ExecCommand("ProjectFile = "D:\Project_development\10_V2.NKP-LJ-05B SPDÖÇÄÜ¼à²â×°ÖÃ\ÖÇÄÜÀËÓ¿¼à²â×°ÖÃ\´úÂë\NKP-LJ-05B_APP-Test\Project\RVMDK£¨uv5£©\JLinkSettings.ini"", ...). 
T154C 000:041.470 - 7.418ms returns 0x00
T154C 000:043.850 JLINK_ExecCommand("Device = STM32F103RC", ...). 
T154C 000:046.053   Device "STM32F103RC" selected.
T154C 000:046.473 - 2.615ms returns 0x00
T154C 000:046.508 JLINK_ExecCommand("DisableConnectionTimeout", ...). 
T154C 000:046.528 - 0.010ms returns 0x01
T154C 000:046.543 JLINK_GetHardwareVersion()
T154C 000:046.558 - 0.021ms returns 0x16F30
T154C 000:046.573 JLINK_GetDLLVersion()  returns 67005
T154C 000:046.593 JLINK_GetFirmwareString(...)
T154C 000:046.608 - 0.022ms
T154C 000:052.769 JLINK_GetDLLVersion()  returns 67005
T154C 000:052.807 JLINK_GetCompileDateTime()
T154C 000:052.821 - 0.020ms
T154C 000:056.398 JLINK_GetFirmwareString(...)
T154C 000:056.431 - 0.041ms
T154C 000:058.064 JLINK_GetHardwareVersion()
T154C 000:058.090 - 0.033ms returns 0x16F30
T154C 000:064.251 JLINK_TIF_Select(JLINKARM_TIF_SWD)
T154C 000:066.893 - 2.667ms returns 0x00
T154C 000:066.955 JLINK_SetSpeed(5000)
T154C 000:067.158 - 0.211ms
T154C 000:067.192 JLINK_GetId()
T154C 000:070.430   Found SW-DP with ID 0x1BA01477
T154C 000:087.851   Found SW-DP with ID 0x1BA01477
T154C 000:092.454   DPIDR: 0x1BA01477
T154C 000:094.066   Scanning AP map to find all available APs
T154C 000:096.564   AP[1]: Stopped AP scan as end of AP map has been reached
T154C 000:099.371   AP[0]: AHB-AP (IDR: 0x14770011)
T154C 000:101.100   Iterating through AP map to find AHB-AP to use
T154C 000:104.133   AP[0]: Core found
T154C 000:105.879   AP[0]: AHB-AP ROM base: 0xE00FF000
T154C 000:108.198   CPUID register: 0x411FC231. Implementer code: 0x41 (ARM)
T154C 000:109.930   Found Cortex-M3 r1p1, Little endian.
T154C 000:219.859    -- Max. mem block: 0x00010930
T154C 000:219.917   CPU_ReadMem(4 bytes @ 0xE000EDF0)
T154C 000:223.783   CPU_ReadMem(4 bytes @ 0xE0002000)
T154C 000:225.901   FPUnit: 6 code (BP) slots and 2 literal slots
T154C 000:225.932   CPU_ReadMem(4 bytes @ 0xE000EDFC)
T154C 000:226.327   CPU_ReadMem(4 bytes @ 0xE0001000)
T154C 000:226.703   CPU_WriteMem(4 bytes @ 0xE0001000)
T154C 000:227.072   CPU_ReadMem(4 bytes @ 0xE000ED88)
T154C 000:227.441   CPU_WriteMem(4 bytes @ 0xE000ED88)
T154C 000:227.783   CPU_ReadMem(4 bytes @ 0xE000ED88)
T154C 000:228.169   CPU_WriteMem(4 bytes @ 0xE000ED88)
T154C 000:230.268   CoreSight components:
T154C 000:232.330   ROMTbl[0] @ E00FF000
T154C 000:232.369   CPU_ReadMem(64 bytes @ 0xE00FF000)
T154C 000:233.320   CPU_ReadMem(32 bytes @ 0xE000EFE0)
T154C 000:235.442   ROMTbl[0][0]: E000E000, CID: B105E00D, PID: 001BB000 SCS
T154C 000:235.475   CPU_ReadMem(32 bytes @ 0xE0001FE0)
T154C 000:237.527   ROMTbl[0][1]: E0001000, CID: B105E00D, PID: 001BB002 DWT
T154C 000:237.559   CPU_ReadMem(32 bytes @ 0xE0002FE0)
T154C 000:239.619   ROMTbl[0][2]: E0002000, CID: B105E00D, PID: 000BB003 FPB
T154C 000:239.706   CPU_ReadMem(32 bytes @ 0xE0000FE0)
T154C 000:241.746   ROMTbl[0][3]: E0000000, CID: B105E00D, PID: 001BB001 ITM
T154C 000:241.777   CPU_ReadMem(32 bytes @ 0xE0040FE0)
T154C 000:243.852   ROMTbl[0][4]: E0040000, CID: B105900D, PID: 001BB923 TPIU-Lite
T154C 000:243.883   CPU_ReadMem(32 bytes @ 0xE0041FE0)
T154C 000:245.898   ROMTbl[0][5]: E0041000, CID: B105900D, PID: 101BB924 ETM-M3
T154C 000:246.268 - 179.087ms   returns 0x1BA01477
T154C 000:246.315 JLINK_GetDLLVersion()  returns 67005
T154C 000:246.334 JLINK_CORE_GetFound()
T154C 000:246.348 - 0.021ms returns 0x30000FF
T154C 000:246.367 JLINK_GetDebugInfo(0x100 = JLINKARM_ROM_TABLE_ADDR_INDEX)
T154C 000:246.385   Value=0xE00FF000
T154C 000:246.407 - 0.048ms returns 0x00
T154C 000:248.786 JLINK_GetDebugInfo(0x100 = JLINKARM_ROM_TABLE_ADDR_INDEX)
T154C 000:248.824   Value=0xE00FF000
T154C 000:248.845 - 0.066ms returns 0x00
T154C 000:248.861 JLINK_GetDebugInfo(0x101 = JLINKARM_DEBUG_INFO_ETM_ADDR_INDEX)
T154C 000:248.876   Value=0xE0041000
T154C 000:248.898 - 0.044ms returns 0x00
T154C 000:248.920   JLINK_ReadMemEx(0xE0041FD0, 0x0020 Bytes, ..., Flags = 0x02000004)
T154C 000:248.965   CPU_ReadMem(32 bytes @ 0xE0041FD0)
T154C 000:249.751   Data:  04 00 00 00 00 00 00 00 00 00 00 00 00 00 00 00 ...
T154C 000:249.786 - 0.877ms returns 0x20
T154C 000:249.847 JLINK_GetDebugInfo(0x102 = JLINKARM_DEBUG_INFO_MTB_ADDR_INDEX)
T154C 000:249.863   Value=0x00000000
T154C 000:249.884 - 0.044ms returns 0x00
T154C 000:249.900 JLINK_GetDebugInfo(0x103 = JLINKARM_DEBUG_INFO_TPIU_ADDR_INDEX)
T154C 000:249.915   Value=0xE0040000
T154C 000:249.937 - 0.045ms returns 0x00
T154C 000:249.953 JLINK_GetDebugInfo(0x104 = JLINKARM_DEBUG_INFO_ITM_ADDR_INDEX)
T154C 000:249.969   Value=0xE0000000
T154C 000:249.992 - 0.045ms returns 0x00
T154C 000:250.008 JLINK_GetDebugInfo(0x105 = JLINKARM_DEBUG_INFO_DWT_ADDR_INDEX)
T154C 000:250.023   Value=0xE0001000
T154C 000:250.046 - 0.045ms returns 0x00
T154C 000:250.062 JLINK_GetDebugInfo(0x106 = JLINKARM_DEBUG_INFO_FPB_ADDR_INDEX)
T154C 000:250.078   Value=0xE0002000
T154C 000:250.100 - 0.044ms returns 0x00
T154C 000:250.116 JLINK_GetDebugInfo(0x107 = JLINKARM_DEBUG_INFO_NVIC_ADDR_INDEX)
T154C 000:250.131   Value=0xE000E000
T154C 000:250.153 - 0.044ms returns 0x00
T154C 000:250.169 JLINK_GetDebugInfo(0x10C = JLINKARM_DEBUG_INFO_DBG_ADDR_INDEX)
T154C 000:250.184   Value=0xE000EDF0
T154C 000:250.206 - 0.055ms returns 0x00
T154C 000:250.232 JLINK_GetDebugInfo(0x01 = Unknown)
T154C 000:250.249   Value=0x00000000
T154C 000:250.270 - 0.045ms returns 0x00
T154C 000:250.288 JLINK_ReadMemU32(0xE000ED00, 0x0001 Items, ...)
T154C 000:250.315   CPU_ReadMem(4 bytes @ 0xE000ED00)
T154C 000:250.753   Data:  31 C2 1F 41
T154C 000:250.779    - CPUID
T154C 000:250.800 - 0.520ms returns 1
T154C 000:250.833 JLINK_GetDebugInfo(0x10F = JLINKARM_DEBUG_INFO_HAS_CORTEX_M_SECURITY_EXT_INDEX)
T154C 000:250.850   Value=0x00000000
T154C 000:250.871 - 0.046ms returns 0x00
T154C 000:250.889 JLINK_SetResetType(JLINKARM_CM3_RESET_TYPE_NORMAL)
T154C 000:250.905 - 0.023ms returns JLINKARM_CM3_RESET_TYPE_NORMAL
T154C 000:250.921 JLINK_Reset()
T154C 000:251.041   CPU is running
T154C 000:251.065   CPU_WriteMem(4 bytes @ 0xE000EDF0)
T154C 000:251.441   CPU is running
T154C 000:251.470   CPU_WriteMem(4 bytes @ 0xE000EDFC)
T154C 000:253.841   Reset: Halt core after reset via DEMCR.VC_CORERESET.
T154C 000:256.160   Reset: Reset device via AIRCR.SYSRESETREQ.
T154C 000:256.195   CPU is running
T154C 000:256.219   CPU_WriteMem(4 bytes @ 0xE000ED0C)
T154C 000:310.508   CPU_ReadMem(4 bytes @ 0xE000EDF0)
T154C 000:310.900   CPU_ReadMem(4 bytes @ 0xE000EDF0)
T154C 000:311.292   CPU is running
T154C 000:311.314   CPU_WriteMem(4 bytes @ 0xE000EDF0)
T154C 000:311.688   CPU is running
T154C 000:311.710   CPU_WriteMem(4 bytes @ 0xE000EDFC)
T154C 000:324.902   CPU_ReadMem(4 bytes @ 0xE000EDF0)
T154C 000:329.387   CPU_WriteMem(4 bytes @ 0xE0002000)
T154C 000:330.276   CPU_ReadMem(4 bytes @ 0xE000EDFC)
T154C 000:330.859   CPU_ReadMem(4 bytes @ 0xE0001000)
T154C 000:331.252 - 80.350ms
T154C 000:331.302 JLINK_Halt()
T154C 000:331.316 - 0.020ms returns 0x00
T154C 000:331.331 JLINK_ReadMemU32(0xE000EDF0, 0x0001 Items, ...)
T154C 000:331.383   CPU_ReadMem(4 bytes @ 0xE000EDF0)
T154C 000:331.914   Data:  03 00 03 00
T154C 000:331.944    - DHCSR
T154C 000:331.964 - 0.638ms returns 1
T154C 000:332.000 JLINK_WriteU32(0xE000EDF0, 0xA05F0003)
T154C 000:332.016    - DHCSR
T154C 000:332.079   CPU_WriteMem(4 bytes @ 0xE000EDF0)
T154C 000:332.700 - 0.709ms returns 0
T154C 000:332.733 JLINK_WriteU32(0xE000EDFC, 0x01000000)
T154C 000:332.748    - DEMCR
T154C 000:332.780   CPU_WriteMem(4 bytes @ 0xE000EDFC)
T154C 000:333.154 - 0.428ms returns 0
T154C 000:339.222 JLINK_GetHWStatus(...)
T154C 000:339.599 - 0.393ms returns 0x00
T154C 000:344.407 JLINK_GetNumBPUnits(Type = 0xFFFFFF00)
T154C 000:344.436 - 0.036ms returns 0x06
T154C 000:344.452 JLINK_GetNumBPUnits(Type = 0xF0)
T154C 000:344.466 - 0.020ms returns 0x2000
T154C 000:344.481 JLINK_GetNumWPUnits()
T154C 000:344.495 - 0.021ms returns 0x04
T154C 000:349.689 JLINK_GetSpeed()
T154C 000:349.724 - 0.042ms returns 0xFA0
T154C 000:352.668 JLINK_ReadMemU32(0xE000E004, 0x0001 Items, ...)
T154C 000:352.801   CPU_ReadMem(4 bytes @ 0xE000E004)
T154C 000:353.873   Data:  01 00 00 00
T154C 000:353.909 - 1.248ms returns 1
T154C 000:353.946 JLINK_ReadMemU32(0xE000E004, 0x0001 Items, ...)
T154C 000:353.985   CPU_ReadMem(4 bytes @ 0xE000E004)
T154C 000:354.865   Data:  01 00 00 00
T154C 000:354.906 - 0.966ms returns 1
T154C 000:354.946 JLINK_WriteMemEx(0xE0001000, 0x001C Bytes, ..., Flags = 0x02000004)
T154C 000:354.962   Data:  01 00 00 00 00 00 00 00 00 00 00 00 00 00 00 00 ...
T154C 000:355.222   CPU_WriteMem(28 bytes @ 0xE0001000)
T154C 000:355.930 - 1.001ms returns 0x1C
T154C 000:355.981 JLINK_Halt()
T154C 000:355.996 - 0.022ms returns 0x00
T154C 000:356.011 JLINK_IsHalted()
T154C 000:356.027 - 0.023ms returns TRUE
T154C 000:358.165 JLINK_WriteMem(0x20000000, 0x0164 Bytes, ...)
T154C 000:358.187   Data:  00 BE 0A E0 0D 78 2D 06 68 40 08 24 40 00 00 D3 ...
T154C 000:358.454   CPU_WriteMem(356 bytes @ 0x20000000)
T154C 000:360.469 - 2.323ms returns 0x164
T154C 000:360.559 JLINK_WriteReg(R0, 0x08000000)
T154C 000:360.585 - 0.035ms returns 0x00
T154C 000:360.601 JLINK_WriteReg(R1, 0x00B71B00)
T154C 000:360.622 - 0.028ms returns 0x00
T154C 000:360.638 JLINK_WriteReg(R2, 0x00000001)
T154C 000:360.666 - 0.035ms returns 0x00
T154C 000:360.682 JLINK_WriteReg(R3, 0x00000000)
T154C 000:360.707 - 0.032ms returns 0x00
T154C 000:360.723 JLINK_WriteReg(R4, 0x00000000)
T154C 000:360.745 - 0.029ms returns 0x00
T154C 000:360.762 JLINK_WriteReg(R5, 0x00000000)
T154C 000:360.801 - 0.047ms returns 0x00
T154C 000:360.818 JLINK_WriteReg(R6, 0x00000000)
T154C 000:360.840 - 0.029ms returns 0x00
T154C 000:360.856 JLINK_WriteReg(R7, 0x00000000)
T154C 000:360.877 - 0.029ms returns 0x00
T154C 000:360.894 JLINK_WriteReg(R8, 0x00000000)
T154C 000:360.916 - 0.029ms returns 0x00
T154C 000:360.931 JLINK_WriteReg(R9, 0x20000160)
T154C 000:361.052 - 0.129ms returns 0x00
T154C 000:361.070 JLINK_WriteReg(R10, 0x00000000)
T154C 000:361.092 - 0.029ms returns 0x00
T154C 000:361.109 JLINK_WriteReg(R11, 0x00000000)
T154C 000:361.130 - 0.028ms returns 0x00
T154C 000:361.146 JLINK_WriteReg(R12, 0x00000000)
T154C 000:361.168 - 0.029ms returns 0x00
T154C 000:361.184 JLINK_WriteReg(R13 (SP), 0x20001000)
T154C 000:361.207 - 0.030ms returns 0x00
T154C 000:361.224 JLINK_WriteReg(R14, 0x20000001)
T154C 000:361.245 - 0.029ms returns 0x00
T154C 000:361.262 JLINK_WriteReg(R15 (PC), 0x20000038)
T154C 000:361.284 - 0.029ms returns 0x00
T154C 000:361.301 JLINK_WriteReg(XPSR, 0x01000000)
T154C 000:361.324 - 0.030ms returns 0x00
T154C 000:361.340 JLINK_WriteReg(MSP, 0x20001000)
T154C 000:361.362 - 0.029ms returns 0x00
T154C 000:361.378 JLINK_WriteReg(PSP, 0x20001000)
T154C 000:361.400 - 0.029ms returns 0x00
T154C 000:361.417 JLINK_WriteReg(CFBP, 0x00000000)
T154C 000:361.440 - 0.032ms returns 0x00
T154C 000:361.458   JLINK_SetBPEx(Addr = 0x20000000, Type = 0xFFFFFFF2)
T154C 000:361.522   CPU_ReadMem(2 bytes @ 0x20000000)
T154C 000:362.040 - 0.600ms returns 0x00000001
T154C 000:362.088 JLINK_Go()
T154C 000:362.114   CPU_WriteMem(2 bytes @ 0x20000000)
T154C 000:362.671   CPU_ReadMem(4 bytes @ 0xE0001000)
T154C 000:363.060   CPU_WriteMem(4 bytes @ 0xE0002008)
T154C 000:363.094   CPU_WriteMem(4 bytes @ 0xE000200C)
T154C 000:363.116   CPU_WriteMem(4 bytes @ 0xE0002010)
T154C 000:363.139   CPU_WriteMem(4 bytes @ 0xE0002014)
T154C 000:363.162   CPU_WriteMem(4 bytes @ 0xE0002018)
T154C 000:363.186   CPU_WriteMem(4 bytes @ 0xE000201C)
T154C 000:364.798   CPU_WriteMem(4 bytes @ 0xE0001004)
T154C 000:367.937 - 5.869ms
T154C 000:367.988 JLINK_IsHalted()
T154C 000:370.256   CPU_ReadMem(2 bytes @ 0x20000000)
T154C 000:371.083 - 3.115ms returns TRUE
T154C 000:371.148 JLINK_ReadReg(R15 (PC))
T154C 000:371.173 - 0.033ms returns 0x20000000
T154C 000:371.193 JLINK_ClrBPEx(BPHandle = 0x00000001)
T154C 000:371.215 - 0.030ms returns 0x00
T154C 000:371.234 JLINK_ReadReg(R0)
T154C 000:371.256 - 0.029ms returns 0x00000000
T154C 000:371.744 JLINK_WriteReg(R0, 0x08000000)
T154C 000:371.870 - 0.134ms returns 0x00
T154C 000:371.888 JLINK_WriteReg(R1, 0x00B71B00)
T154C 000:371.908 - 0.027ms returns 0x00
T154C 000:371.923 JLINK_WriteReg(R2, 0x00000001)
T154C 000:371.944 - 0.027ms returns 0x00
T154C 000:371.959 JLINK_WriteReg(R3, 0x00000000)
T154C 000:371.980 - 0.028ms returns 0x00
T154C 000:371.996 JLINK_WriteReg(R4, 0x00000000)
T154C 000:372.016 - 0.028ms returns 0x00
T154C 000:372.033 JLINK_WriteReg(R5, 0x00000000)
T154C 000:372.054 - 0.029ms returns 0x00
T154C 000:372.071 JLINK_WriteReg(R6, 0x00000000)
T154C 000:372.091 - 0.028ms returns 0x00
T154C 000:372.107 JLINK_WriteReg(R7, 0x00000000)
T154C 000:372.128 - 0.028ms returns 0x00
T154C 000:372.144 JLINK_WriteReg(R8, 0x00000000)
T154C 000:372.165 - 0.029ms returns 0x00
T154C 000:372.182 JLINK_WriteReg(R9, 0x20000160)
T154C 000:372.203 - 0.029ms returns 0x00
T154C 000:372.220 JLINK_WriteReg(R10, 0x00000000)
T154C 000:372.240 - 0.028ms returns 0x00
T154C 000:372.257 JLINK_WriteReg(R11, 0x00000000)
T154C 000:372.290 - 0.042ms returns 0x00
T154C 000:372.307 JLINK_WriteReg(R12, 0x00000000)
T154C 000:372.332 - 0.032ms returns 0x00
T154C 000:372.349 JLINK_WriteReg(R13 (SP), 0x20001000)
T154C 000:372.371 - 0.029ms returns 0x00
T154C 000:372.387 JLINK_WriteReg(R14, 0x20000001)
T154C 000:372.409 - 0.029ms returns 0x00
T154C 000:372.425 JLINK_WriteReg(R15 (PC), 0x2000007C)
T154C 000:372.447 - 0.029ms returns 0x00
T154C 000:372.463 JLINK_WriteReg(XPSR, 0x01000000)
T154C 000:372.485 - 0.029ms returns 0x00
T154C 000:372.501 JLINK_WriteReg(MSP, 0x20001000)
T154C 000:372.613 - 0.119ms returns 0x00
T154C 000:372.630 JLINK_WriteReg(PSP, 0x20001000)
T154C 000:372.651 - 0.029ms returns 0x00
T154C 000:372.667 JLINK_WriteReg(CFBP, 0x00000000)
T154C 000:372.688 - 0.028ms returns 0x00
T154C 000:372.706   JLINK_SetBPEx(Addr = 0x20000000, Type = 0xFFFFFFF2)
T154C 000:372.737 - 0.040ms returns 0x00000002
T154C 000:372.754 JLINK_Go()
T154C 000:372.783   CPU_ReadMem(4 bytes @ 0xE0001000)
T154C 000:375.442 - 2.703ms
T154C 000:375.483 JLINK_IsHalted()
T154C 000:375.921 - 0.446ms returns FALSE
T154C 000:400.820 JLINK_IsHalted()
T154C 000:403.999   CPU_ReadMem(2 bytes @ 0x20000000)
T154C 000:404.815 - 4.014ms returns TRUE
T154C 000:404.871 JLINK_ReadReg(R15 (PC))
T154C 000:404.898 - 0.034ms returns 0x20000000
T154C 000:404.914 JLINK_ClrBPEx(BPHandle = 0x00000002)
T154C 000:404.936 - 0.029ms returns 0x00
T154C 000:404.953 JLINK_ReadReg(R0)
T154C 000:404.974 - 0.029ms returns 0x00000000
T154C 000:461.237 JLINK_WriteReg(R0, 0x00000001)
T154C 000:461.318 - 0.088ms returns 0x00
T154C 000:461.332 JLINK_WriteReg(R1, 0x00B71B00)
T154C 000:461.350 - 0.023ms returns 0x00
T154C 000:461.363 JLINK_WriteReg(R2, 0x00000001)
T154C 000:461.382 - 0.025ms returns 0x00
T154C 000:461.396 JLINK_WriteReg(R3, 0x00000000)
T154C 000:461.458 - 0.070ms returns 0x00
T154C 000:461.474 JLINK_WriteReg(R4, 0x00000000)
T154C 000:461.493 - 0.025ms returns 0x00
T154C 000:461.507 JLINK_WriteReg(R5, 0x00000000)
T154C 000:461.526 - 0.025ms returns 0x00
T154C 000:461.540 JLINK_WriteReg(R6, 0x00000000)
T154C 000:461.558 - 0.025ms returns 0x00
T154C 000:461.573 JLINK_WriteReg(R7, 0x00000000)
T154C 000:461.590 - 0.024ms returns 0x00
T154C 000:461.604 JLINK_WriteReg(R8, 0x00000000)
T154C 000:461.622 - 0.024ms returns 0x00
T154C 000:461.637 JLINK_WriteReg(R9, 0x20000160)
T154C 000:461.654 - 0.024ms returns 0x00
T154C 000:461.668 JLINK_WriteReg(R10, 0x00000000)
T154C 000:461.686 - 0.024ms returns 0x00
T154C 000:461.700 JLINK_WriteReg(R11, 0x00000000)
T154C 000:461.719 - 0.025ms returns 0x00
T154C 000:461.733 JLINK_WriteReg(R12, 0x00000000)
T154C 000:461.832 - 0.106ms returns 0x00
T154C 000:461.847 JLINK_WriteReg(R13 (SP), 0x20001000)
T154C 000:461.866 - 0.026ms returns 0x00
T154C 000:461.880 JLINK_WriteReg(R14, 0x20000001)
T154C 000:461.898 - 0.025ms returns 0x00
T154C 000:461.913 JLINK_WriteReg(R15 (PC), 0x2000006A)
T154C 000:461.931 - 0.025ms returns 0x00
T154C 000:461.946 JLINK_WriteReg(XPSR, 0x01000000)
T154C 000:461.965 - 0.026ms returns 0x00
T154C 000:461.979 JLINK_WriteReg(MSP, 0x20001000)
T154C 000:461.997 - 0.025ms returns 0x00
T154C 000:462.012 JLINK_WriteReg(PSP, 0x20001000)
T154C 000:462.030 - 0.025ms returns 0x00
T154C 000:462.044 JLINK_WriteReg(CFBP, 0x00000000)
T154C 000:462.062 - 0.049ms returns 0x00
T154C 000:462.103   JLINK_SetBPEx(Addr = 0x20000000, Type = 0xFFFFFFF2)
T154C 000:462.129 - 0.033ms returns 0x00000003
T154C 000:462.143 JLINK_Go()
T154C 000:462.172   CPU_ReadMem(4 bytes @ 0xE0001000)
T154C 000:468.406 - 6.293ms
T154C 000:468.463 JLINK_IsHalted()
T154C 000:471.208   CPU_ReadMem(2 bytes @ 0x20000000)
T154C 000:471.898 - 3.467ms returns TRUE
T154C 000:471.963 JLINK_ReadReg(R15 (PC))
T154C 000:471.987 - 0.031ms returns 0x20000000
T154C 000:472.002 JLINK_ClrBPEx(BPHandle = 0x00000003)
T154C 000:472.021 - 0.025ms returns 0x00
T154C 000:472.039 JLINK_ReadReg(R0)
T154C 000:472.058 - 0.026ms returns 0x00000000
T154C 000:475.870 JLINK_WriteMem(0x20000000, 0x0164 Bytes, ...)
T154C 000:475.893   Data:  00 BE 0A E0 0D 78 2D 06 68 40 08 24 40 00 00 D3 ...
T154C 000:476.069   CPU_WriteMem(356 bytes @ 0x20000000)
T154C 000:478.151 - 2.314ms returns 0x164
T154C 000:478.267 JLINK_WriteReg(R0, 0x08000000)
T154C 000:478.291 - 0.030ms returns 0x00
T154C 000:478.305 JLINK_WriteReg(R1, 0x00B71B00)
T154C 000:478.323 - 0.025ms returns 0x00
T154C 000:478.337 JLINK_WriteReg(R2, 0x00000002)
T154C 000:478.357 - 0.026ms returns 0x00
T154C 000:478.371 JLINK_WriteReg(R3, 0x00000000)
T154C 000:478.390 - 0.026ms returns 0x00
T154C 000:478.405 JLINK_WriteReg(R4, 0x00000000)
T154C 000:478.466 - 0.067ms returns 0x00
T154C 000:478.481 JLINK_WriteReg(R5, 0x00000000)
T154C 000:478.500 - 0.026ms returns 0x00
T154C 000:478.515 JLINK_WriteReg(R6, 0x00000000)
T154C 000:478.534 - 0.026ms returns 0x00
T154C 000:478.549 JLINK_WriteReg(R7, 0x00000000)
T154C 000:478.568 - 0.026ms returns 0x00
T154C 000:478.583 JLINK_WriteReg(R8, 0x00000000)
T154C 000:478.602 - 0.026ms returns 0x00
T154C 000:478.616 JLINK_WriteReg(R9, 0x20000160)
T154C 000:478.635 - 0.025ms returns 0x00
T154C 000:478.649 JLINK_WriteReg(R10, 0x00000000)
T154C 000:478.667 - 0.025ms returns 0x00
T154C 000:478.682 JLINK_WriteReg(R11, 0x00000000)
T154C 000:478.701 - 0.026ms returns 0x00
T154C 000:478.716 JLINK_WriteReg(R12, 0x00000000)
T154C 000:478.735 - 0.026ms returns 0x00
T154C 000:478.750 JLINK_WriteReg(R13 (SP), 0x20001000)
T154C 000:478.770 - 0.026ms returns 0x00
T154C 000:478.789 JLINK_WriteReg(R14, 0x20000001)
T154C 000:478.909 - 0.127ms returns 0x00
T154C 000:478.924 JLINK_WriteReg(R15 (PC), 0x20000038)
T154C 000:478.943 - 0.026ms returns 0x00
T154C 000:478.958 JLINK_WriteReg(XPSR, 0x01000000)
T154C 000:478.977 - 0.026ms returns 0x00
T154C 000:478.992 JLINK_WriteReg(MSP, 0x20001000)
T154C 000:479.012 - 0.029ms returns 0x00
T154C 000:479.030 JLINK_WriteReg(PSP, 0x20001000)
T154C 000:479.049 - 0.026ms returns 0x00
T154C 000:479.064 JLINK_WriteReg(CFBP, 0x00000000)
T154C 000:479.083 - 0.026ms returns 0x00
T154C 000:479.099   JLINK_SetBPEx(Addr = 0x20000000, Type = 0xFFFFFFF2)
T154C 000:479.131   CPU_ReadMem(2 bytes @ 0x20000000)
T154C 000:480.169 - 1.099ms returns 0x00000004
T154C 000:480.229 JLINK_Go()
T154C 000:480.255   CPU_WriteMem(2 bytes @ 0x20000000)
T154C 000:481.055   CPU_ReadMem(4 bytes @ 0xE0001000)
T154C 000:483.662 - 3.451ms
T154C 000:483.729 JLINK_IsHalted()
T154C 000:486.167   CPU_ReadMem(2 bytes @ 0x20000000)
T154C 000:486.588 - 2.875ms returns TRUE
T154C 000:486.645 JLINK_ReadReg(R15 (PC))
T154C 000:486.667 - 0.028ms returns 0x20000000
T154C 000:486.681 JLINK_ClrBPEx(BPHandle = 0x00000004)
T154C 000:486.700 - 0.025ms returns 0x00
T154C 000:486.714 JLINK_ReadReg(R0)
T154C 000:486.733 - 0.025ms returns 0x00000000
T154C 000:487.050 JLINK_WriteMem(0x20000164, 0x029C Bytes, ...)
T154C 000:487.118   Data:  68 35 00 20 45 31 00 08 D9 5A 00 08 45 50 00 08 ...
T154C 000:487.153   CPU_WriteMem(668 bytes @ 0x20000164)
T154C 000:489.892 - 2.866ms returns 0x29C
T154C 000:489.940 JLINK_WriteMem(0x20000400, 0x0164 Bytes, ...)
T154C 000:489.955   Data:  10 B5 13 46 0A 46 04 46 19 46 FF F7 F0 FF 20 46 ...
T154C 000:489.991   CPU_WriteMem(356 bytes @ 0x20000400)
T154C 000:491.581 - 1.653ms returns 0x164
T154C 000:491.627 JLINK_WriteReg(R0, 0x08003000)
T154C 000:491.649 - 0.029ms returns 0x00
T154C 000:491.663 JLINK_WriteReg(R1, 0x00000400)
T154C 000:491.682 - 0.025ms returns 0x00
T154C 000:491.697 JLINK_WriteReg(R2, 0x20000164)
T154C 000:491.715 - 0.025ms returns 0x00
T154C 000:491.730 JLINK_WriteReg(R3, 0x00000000)
T154C 000:491.833 - 0.109ms returns 0x00
T154C 000:491.847 JLINK_WriteReg(R4, 0x00000000)
T154C 000:491.866 - 0.025ms returns 0x00
T154C 000:491.881 JLINK_WriteReg(R5, 0x00000000)
T154C 000:491.902 - 0.028ms returns 0x00
T154C 000:491.916 JLINK_WriteReg(R6, 0x00000000)
T154C 000:491.936 - 0.025ms returns 0x00
T154C 000:491.950 JLINK_WriteReg(R7, 0x00000000)
T154C 000:492.003 - 0.060ms returns 0x00
T154C 000:492.018 JLINK_WriteReg(R8, 0x00000000)
T154C 000:492.037 - 0.025ms returns 0x00
T154C 000:492.051 JLINK_WriteReg(R9, 0x20000160)
T154C 000:492.070 - 0.026ms returns 0x00
T154C 000:492.084 JLINK_WriteReg(R10, 0x00000000)
T154C 000:492.103 - 0.025ms returns 0x00
T154C 000:492.117 JLINK_WriteReg(R11, 0x00000000)
T154C 000:492.135 - 0.024ms returns 0x00
T154C 000:492.150 JLINK_WriteReg(R12, 0x00000000)
T154C 000:492.168 - 0.025ms returns 0x00
T154C 000:492.183 JLINK_WriteReg(R13 (SP), 0x20001000)
T154C 000:492.202 - 0.026ms returns 0x00
T154C 000:492.217 JLINK_WriteReg(R14, 0x20000001)
T154C 000:492.235 - 0.025ms returns 0x00
T154C 000:492.250 JLINK_WriteReg(R15 (PC), 0x200000F4)
T154C 000:492.269 - 0.025ms returns 0x00
T154C 000:492.283 JLINK_WriteReg(XPSR, 0x01000000)
T154C 000:492.302 - 0.024ms returns 0x00
T154C 000:492.315 JLINK_WriteReg(MSP, 0x20001000)
T154C 000:492.334 - 0.025ms returns 0x00
T154C 000:492.349 JLINK_WriteReg(PSP, 0x20001000)
T154C 000:492.367 - 0.025ms returns 0x00
T154C 000:492.381 JLINK_WriteReg(CFBP, 0x00000000)
T154C 000:492.474 - 0.099ms returns 0x00
T154C 000:492.489   JLINK_SetBPEx(Addr = 0x20000000, Type = 0xFFFFFFF2)
T154C 000:492.528 - 0.046ms returns 0x00000005
T154C 000:492.543 JLINK_Go()
T154C 000:492.568   CPU_ReadMem(4 bytes @ 0xE0001000)
T154C 000:494.995 - 2.462ms
T154C 000:495.028 JLINK_IsHalted()
T154C 000:495.388 - 0.367ms returns FALSE
T154C 000:506.076 JLINK_IsHalted()
T154C 000:506.888 - 0.831ms returns FALSE
T154C 000:521.198 JLINK_IsHalted()
T154C 000:522.223 - 1.047ms returns FALSE
T154C 000:536.408 JLINK_IsHalted()
T154C 000:539.995   CPU_ReadMem(2 bytes @ 0x20000000)
T154C 000:540.840 - 4.449ms returns TRUE
T154C 000:540.912 JLINK_ReadReg(R15 (PC))
T154C 000:540.936 - 0.030ms returns 0x20000000
T154C 000:540.952 JLINK_ClrBPEx(BPHandle = 0x00000005)
T154C 000:540.970 - 0.024ms returns 0x00
T154C 000:540.989 JLINK_ReadReg(R0)
T154C 000:541.009 - 0.027ms returns 0x00000000
T154C 000:541.480 JLINK_WriteMem(0x20000164, 0x029C Bytes, ...)
T154C 000:541.497   Data:  00 20 70 47 4F F4 00 00 00 23 91 42 01 D3 89 1A ...
T154C 000:541.531   CPU_WriteMem(668 bytes @ 0x20000164)
T154C 000:544.307 - 2.843ms returns 0x29C
T154C 000:544.344 JLINK_WriteMem(0x20000400, 0x0164 Bytes, ...)
T154C 000:544.357   Data:  C5 F3 13 03 C1 F3 13 00 C1 F3 0A 56 40 F4 80 15 ...
T154C 000:544.386   CPU_WriteMem(356 bytes @ 0x20000400)
T154C 000:546.204 - 1.868ms returns 0x164
T154C 000:546.232 JLINK_WriteReg(R0, 0x08003400)
T154C 000:546.252 - 0.027ms returns 0x00
T154C 000:546.267 JLINK_WriteReg(R1, 0x00000400)
T154C 000:546.285 - 0.024ms returns 0x00
T154C 000:546.299 JLINK_WriteReg(R2, 0x20000164)
T154C 000:546.317 - 0.024ms returns 0x00
T154C 000:546.331 JLINK_WriteReg(R3, 0x00000000)
T154C 000:546.349 - 0.024ms returns 0x00
T154C 000:546.362 JLINK_WriteReg(R4, 0x00000000)
T154C 000:546.380 - 0.024ms returns 0x00
T154C 000:546.394 JLINK_WriteReg(R5, 0x00000000)
T154C 000:546.500 - 0.113ms returns 0x00
T154C 000:546.515 JLINK_WriteReg(R6, 0x00000000)
T154C 000:546.533 - 0.025ms returns 0x00
T154C 000:546.547 JLINK_WriteReg(R7, 0x00000000)
T154C 000:546.566 - 0.024ms returns 0x00
T154C 000:546.579 JLINK_WriteReg(R8, 0x00000000)
T154C 000:546.598 - 0.024ms returns 0x00
T154C 000:546.611 JLINK_WriteReg(R9, 0x20000160)
T154C 000:546.631 - 0.026ms returns 0x00
T154C 000:546.645 JLINK_WriteReg(R10, 0x00000000)
T154C 000:546.727 - 0.088ms returns 0x00
T154C 000:546.741 JLINK_WriteReg(R11, 0x00000000)
T154C 000:546.759 - 0.025ms returns 0x00
T154C 000:546.773 JLINK_WriteReg(R12, 0x00000000)
T154C 000:546.791 - 0.024ms returns 0x00
T154C 000:546.805 JLINK_WriteReg(R13 (SP), 0x20001000)
T154C 000:546.824 - 0.025ms returns 0x00
T154C 000:546.838 JLINK_WriteReg(R14, 0x20000001)
T154C 000:546.857 - 0.025ms returns 0x00
T154C 000:546.870 JLINK_WriteReg(R15 (PC), 0x200000F4)
T154C 000:546.889 - 0.025ms returns 0x00
T154C 000:546.903 JLINK_WriteReg(XPSR, 0x01000000)
T154C 000:546.922 - 0.025ms returns 0x00
T154C 000:546.936 JLINK_WriteReg(MSP, 0x20001000)
T154C 000:546.954 - 0.025ms returns 0x00
T154C 000:546.968 JLINK_WriteReg(PSP, 0x20001000)
T154C 000:546.987 - 0.024ms returns 0x00
T154C 000:547.001 JLINK_WriteReg(CFBP, 0x00000000)
T154C 000:547.019 - 0.025ms returns 0x00
T154C 000:547.034   JLINK_SetBPEx(Addr = 0x20000000, Type = 0xFFFFFFF2)
T154C 000:547.059 - 0.032ms returns 0x00000006
T154C 000:547.074 JLINK_Go()
T154C 000:547.175   CPU_ReadMem(4 bytes @ 0xE0001000)
T154C 000:550.236 - 3.175ms
T154C 000:550.267 JLINK_IsHalted()
T154C 000:550.691 - 0.430ms returns FALSE
T154C 000:566.577 JLINK_IsHalted()
T154C 000:567.178 - 0.619ms returns FALSE
T154C 000:581.453 JLINK_IsHalted()
T154C 000:584.809   CPU_ReadMem(2 bytes @ 0x20000000)
T154C 000:585.272 - 3.834ms returns TRUE
T154C 000:585.310 JLINK_ReadReg(R15 (PC))
T154C 000:585.331 - 0.027ms returns 0x20000000
T154C 000:585.344 JLINK_ClrBPEx(BPHandle = 0x00000006)
T154C 000:585.364 - 0.026ms returns 0x00
T154C 000:585.377 JLINK_ReadReg(R0)
T154C 000:585.394 - 0.021ms returns 0x00000000
T154C 000:585.819 JLINK_WriteMem(0x20000164, 0x029C Bytes, ...)
T154C 000:585.836   Data:  30 BC 00 EB C2 50 00 F0 A9 B8 00 00 00 28 01 DB ...
T154C 000:585.864   CPU_WriteMem(668 bytes @ 0x20000164)
T154C 000:588.825 - 3.038ms returns 0x29C
T154C 000:588.883 JLINK_WriteMem(0x20000400, 0x0164 Bytes, ...)
T154C 000:588.896   Data:  D6 17 AD 1A B3 41 02 DB 00 20 01 46 70 BD 20 18 ...
T154C 000:588.932   CPU_WriteMem(356 bytes @ 0x20000400)
T154C 000:590.953 - 2.102ms returns 0x164
T154C 000:591.015 JLINK_WriteReg(R0, 0x08003800)
T154C 000:591.039 - 0.030ms returns 0x00
T154C 000:591.051 JLINK_WriteReg(R1, 0x00000400)
T154C 000:591.068 - 0.022ms returns 0x00
T154C 000:591.081 JLINK_WriteReg(R2, 0x20000164)
T154C 000:591.097 - 0.022ms returns 0x00
T154C 000:591.110 JLINK_WriteReg(R3, 0x00000000)
T154C 000:591.127 - 0.025ms returns 0x00
T154C 000:591.145 JLINK_WriteReg(R4, 0x00000000)
T154C 000:591.162 - 0.023ms returns 0x00
T154C 000:591.176 JLINK_WriteReg(R5, 0x00000000)
T154C 000:591.193 - 0.023ms returns 0x00
T154C 000:591.206 JLINK_WriteReg(R6, 0x00000000)
T154C 000:591.224 - 0.023ms returns 0x00
T154C 000:591.237 JLINK_WriteReg(R7, 0x00000000)
T154C 000:591.254 - 0.023ms returns 0x00
T154C 000:591.268 JLINK_WriteReg(R8, 0x00000000)
T154C 000:591.285 - 0.023ms returns 0x00
T154C 000:591.298 JLINK_WriteReg(R9, 0x20000160)
T154C 000:591.388 - 0.095ms returns 0x00
T154C 000:591.401 JLINK_WriteReg(R10, 0x00000000)
T154C 000:591.418 - 0.023ms returns 0x00
T154C 000:591.432 JLINK_WriteReg(R11, 0x00000000)
T154C 000:591.449 - 0.023ms returns 0x00
T154C 000:591.462 JLINK_WriteReg(R12, 0x00000000)
T154C 000:591.482 - 0.026ms returns 0x00
T154C 000:591.496 JLINK_WriteReg(R13 (SP), 0x20001000)
T154C 000:591.547 - 0.058ms returns 0x00
T154C 000:591.561 JLINK_WriteReg(R14, 0x20000001)
T154C 000:591.578 - 0.023ms returns 0x00
T154C 000:591.592 JLINK_WriteReg(R15 (PC), 0x200000F4)
T154C 000:591.609 - 0.023ms returns 0x00
T154C 000:591.623 JLINK_WriteReg(XPSR, 0x01000000)
T154C 000:591.640 - 0.023ms returns 0x00
T154C 000:591.653 JLINK_WriteReg(MSP, 0x20001000)
T154C 000:591.670 - 0.023ms returns 0x00
T154C 000:591.684 JLINK_WriteReg(PSP, 0x20001000)
T154C 000:591.700 - 0.022ms returns 0x00
T154C 000:591.712 JLINK_WriteReg(CFBP, 0x00000000)
T154C 000:591.729 - 0.023ms returns 0x00
T154C 000:591.743   JLINK_SetBPEx(Addr = 0x20000000, Type = 0xFFFFFFF2)
T154C 000:591.767 - 0.030ms returns 0x00000007
T154C 000:591.780 JLINK_Go()
T154C 000:591.804   CPU_ReadMem(4 bytes @ 0xE0001000)
T154C 000:595.466 - 3.715ms
T154C 000:595.518 JLINK_IsHalted()
T154C 000:595.970 - 0.459ms returns FALSE
T154C 000:612.151 JLINK_IsHalted()
T154C 000:612.946 - 0.815ms returns FALSE
T154C 000:627.319 JLINK_IsHalted()
T154C 000:630.611   CPU_ReadMem(2 bytes @ 0x20000000)
T154C 000:631.160 - 3.859ms returns TRUE
T154C 000:631.202 JLINK_ReadReg(R15 (PC))
T154C 000:631.227 - 0.031ms returns 0x20000000
T154C 000:631.240 JLINK_ClrBPEx(BPHandle = 0x00000007)
T154C 000:631.256 - 0.022ms returns 0x00
T154C 000:631.269 JLINK_ReadReg(R0)
T154C 000:631.389 - 0.130ms returns 0x00000000
T154C 000:631.805 JLINK_WriteMem(0x20000164, 0x029C Bytes, ...)
T154C 000:631.822   Data:  40 15 02 F0 47 F9 00 21 60 15 02 F0 43 F9 17 E0 ...
T154C 000:631.850   CPU_WriteMem(668 bytes @ 0x20000164)
T154C 000:635.056 - 3.283ms returns 0x29C
T154C 000:635.118 JLINK_WriteMem(0x20000400, 0x0164 Bytes, ...)
T154C 000:635.131   Data:  FF F7 86 FC 32 46 3B 46 CD E9 04 01 FF F7 E2 FB ...
T154C 000:635.170   CPU_WriteMem(356 bytes @ 0x20000400)
T154C 000:637.352 - 2.296ms returns 0x164
T154C 000:637.462 JLINK_WriteReg(R0, 0x08003C00)
T154C 000:637.485 - 0.029ms returns 0x00
T154C 000:637.497 JLINK_WriteReg(R1, 0x00000400)
T154C 000:637.512 - 0.021ms returns 0x00
T154C 000:637.524 JLINK_WriteReg(R2, 0x20000164)
T154C 000:637.539 - 0.020ms returns 0x00
T154C 000:637.551 JLINK_WriteReg(R3, 0x00000000)
T154C 000:637.566 - 0.021ms returns 0x00
T154C 000:637.579 JLINK_WriteReg(R4, 0x00000000)
T154C 000:637.595 - 0.022ms returns 0x00
T154C 000:637.607 JLINK_WriteReg(R5, 0x00000000)
T154C 000:637.623 - 0.022ms returns 0x00
T154C 000:637.636 JLINK_WriteReg(R6, 0x00000000)
T154C 000:637.652 - 0.022ms returns 0x00
T154C 000:637.664 JLINK_WriteReg(R7, 0x00000000)
T154C 000:637.680 - 0.022ms returns 0x00
T154C 000:637.693 JLINK_WriteReg(R8, 0x00000000)
T154C 000:637.709 - 0.022ms returns 0x00
T154C 000:637.722 JLINK_WriteReg(R9, 0x20000160)
T154C 000:637.737 - 0.021ms returns 0x00
T154C 000:637.749 JLINK_WriteReg(R10, 0x00000000)
T154C 000:637.765 - 0.021ms returns 0x00
T154C 000:637.777 JLINK_WriteReg(R11, 0x00000000)
T154C 000:637.794 - 0.022ms returns 0x00
T154C 000:637.806 JLINK_WriteReg(R12, 0x00000000)
T154C 000:637.826 - 0.025ms returns 0x00
T154C 000:637.838 JLINK_WriteReg(R13 (SP), 0x20001000)
T154C 000:637.924 - 0.091ms returns 0x00
T154C 000:637.975 JLINK_WriteReg(R14, 0x20000001)
T154C 000:637.993 - 0.024ms returns 0x00
T154C 000:638.005 JLINK_WriteReg(R15 (PC), 0x200000F4)
T154C 000:638.021 - 0.021ms returns 0x00
T154C 000:638.033 JLINK_WriteReg(XPSR, 0x01000000)
T154C 000:638.081 - 0.054ms returns 0x00
T154C 000:638.094 JLINK_WriteReg(MSP, 0x20001000)
T154C 000:638.110 - 0.022ms returns 0x00
T154C 000:638.122 JLINK_WriteReg(PSP, 0x20001000)
T154C 000:638.138 - 0.021ms returns 0x00
T154C 000:638.150 JLINK_WriteReg(CFBP, 0x00000000)
T154C 000:638.166 - 0.022ms returns 0x00
T154C 000:638.179   JLINK_SetBPEx(Addr = 0x20000000, Type = 0xFFFFFFF2)
T154C 000:638.202 - 0.029ms returns 0x00000008
T154C 000:638.214 JLINK_Go()
T154C 000:638.239   CPU_ReadMem(4 bytes @ 0xE0001000)
T154C 000:641.424 - 3.224ms
T154C 000:641.461 JLINK_IsHalted()
T154C 000:641.932 - 0.484ms returns FALSE
T154C 000:657.329 JLINK_IsHalted()
T154C 000:657.903 - 0.591ms returns FALSE
T154C 000:672.255 JLINK_IsHalted()
T154C 000:675.615   CPU_ReadMem(2 bytes @ 0x20000000)
T154C 000:676.437 - 4.209ms returns TRUE
T154C 000:676.528 JLINK_ReadReg(R15 (PC))
T154C 000:676.551 - 0.029ms returns 0x20000000
T154C 000:676.564 JLINK_ClrBPEx(BPHandle = 0x00000008)
T154C 000:676.580 - 0.022ms returns 0x00
T154C 000:676.592 JLINK_ReadReg(R0)
T154C 000:676.608 - 0.022ms returns 0x00000000
T154C 000:677.076 JLINK_WriteMem(0x20000164, 0x029C Bytes, ...)
T154C 000:677.097   Data:  54 5C 60 40 08 24 0B E0 00 F0 80 05 25 B1 31 25 ...
T154C 000:677.130   CPU_WriteMem(668 bytes @ 0x20000164)
T154C 000:684.476 - 7.434ms returns 0x29C
T154C 000:684.572 JLINK_WriteMem(0x20000400, 0x0164 Bytes, ...)
T154C 000:684.585   Data:  43 60 0B 68 83 60 4B 68 C3 60 10 BD 41 60 70 47 ...
T154C 000:684.622   CPU_WriteMem(356 bytes @ 0x20000400)
T154C 000:686.950 - 2.418ms returns 0x164
T154C 000:687.068 JLINK_WriteReg(R0, 0x08004000)
T154C 000:687.099 - 0.037ms returns 0x00
T154C 000:687.113 JLINK_WriteReg(R1, 0x00000400)
T154C 000:687.218 - 0.112ms returns 0x00
T154C 000:687.234 JLINK_WriteReg(R2, 0x20000164)
T154C 000:687.251 - 0.023ms returns 0x00
T154C 000:687.264 JLINK_WriteReg(R3, 0x00000000)
T154C 000:687.280 - 0.023ms returns 0x00
T154C 000:687.303 JLINK_WriteReg(R4, 0x00000000)
T154C 000:687.322 - 0.026ms returns 0x00
T154C 000:687.339 JLINK_WriteReg(R5, 0x00000000)
T154C 000:687.359 - 0.026ms returns 0x00
T154C 000:687.374 JLINK_WriteReg(R6, 0x00000000)
T154C 000:687.393 - 0.026ms returns 0x00
T154C 000:687.408 JLINK_WriteReg(R7, 0x00000000)
T154C 000:687.427 - 0.026ms returns 0x00
T154C 000:687.444 JLINK_WriteReg(R8, 0x00000000)
T154C 000:687.467 - 0.029ms returns 0x00
T154C 000:687.482 JLINK_WriteReg(R9, 0x20000160)
T154C 000:687.512 - 0.036ms returns 0x00
T154C 000:687.532 JLINK_WriteReg(R10, 0x00000000)
T154C 000:687.555 - 0.030ms returns 0x00
T154C 000:687.570 JLINK_WriteReg(R11, 0x00000000)
T154C 000:687.591 - 0.028ms returns 0x00
T154C 000:687.609 JLINK_WriteReg(R12, 0x00000000)
T154C 000:687.626 - 0.023ms returns 0x00
T154C 000:687.639 JLINK_WriteReg(R13 (SP), 0x20001000)
T154C 000:687.657 - 0.024ms returns 0x00
T154C 000:687.670 JLINK_WriteReg(R14, 0x20000001)
T154C 000:687.687 - 0.023ms returns 0x00
T154C 000:687.700 JLINK_WriteReg(R15 (PC), 0x200000F4)
T154C 000:687.717 - 0.022ms returns 0x00
T154C 000:687.729 JLINK_WriteReg(XPSR, 0x01000000)
T154C 000:687.746 - 0.022ms returns 0x00
T154C 000:687.759 JLINK_WriteReg(MSP, 0x20001000)
T154C 000:687.847 - 0.095ms returns 0x00
T154C 000:687.861 JLINK_WriteReg(PSP, 0x20001000)
T154C 000:687.877 - 0.022ms returns 0x00
T154C 000:687.889 JLINK_WriteReg(CFBP, 0x00000000)
T154C 000:687.940 - 0.057ms returns 0x00
T154C 000:687.954   JLINK_SetBPEx(Addr = 0x20000000, Type = 0xFFFFFFF2)
T154C 000:687.979 - 0.031ms returns 0x00000009
T154C 000:687.992 JLINK_Go()
T154C 000:688.017   CPU_ReadMem(4 bytes @ 0xE0001000)
T154C 000:692.146 - 4.170ms
T154C 000:692.201 JLINK_IsHalted()
T154C 000:692.805 - 0.619ms returns FALSE
T154C 000:701.686 JLINK_IsHalted()
T154C 000:702.443 - 0.768ms returns FALSE
T154C 000:716.398 JLINK_IsHalted()
T154C 000:717.312 - 0.936ms returns FALSE
T154C 000:731.127 JLINK_IsHalted()
T154C 000:734.498   CPU_ReadMem(2 bytes @ 0x20000000)
T154C 000:735.312 - 4.202ms returns TRUE
T154C 000:735.372 JLINK_ReadReg(R15 (PC))
T154C 000:735.392 - 0.026ms returns 0x20000000
T154C 000:735.405 JLINK_ClrBPEx(BPHandle = 0x00000009)
T154C 000:735.421 - 0.021ms returns 0x00
T154C 000:735.433 JLINK_ReadReg(R0)
T154C 000:735.449 - 0.021ms returns 0x00000000
T154C 000:735.878 JLINK_WriteMem(0x20000164, 0x029C Bytes, ...)
T154C 000:735.893   Data:  9D F8 09 00 01 EB 00 22 9D F8 0A 30 15 A1 0A A8 ...
T154C 000:735.920   CPU_WriteMem(668 bytes @ 0x20000164)
T154C 000:738.702 - 2.838ms returns 0x29C
T154C 000:738.734 JLINK_WriteMem(0x20000400, 0x0164 Bytes, ...)
T154C 000:738.746   Data:  A7 F8 5F A2 01 21 0C 20 01 F0 A2 F8 03 A8 00 F0 ...
T154C 000:738.772   CPU_WriteMem(356 bytes @ 0x20000400)
T154C 000:740.587 - 1.866ms returns 0x164
T154C 000:740.627 JLINK_WriteReg(R0, 0x08004400)
T154C 000:740.645 - 0.024ms returns 0x00
T154C 000:740.657 JLINK_WriteReg(R1, 0x00000400)
T154C 000:740.674 - 0.022ms returns 0x00
T154C 000:740.686 JLINK_WriteReg(R2, 0x20000164)
T154C 000:740.702 - 0.021ms returns 0x00
T154C 000:740.714 JLINK_WriteReg(R3, 0x00000000)
T154C 000:740.730 - 0.021ms returns 0x00
T154C 000:740.743 JLINK_WriteReg(R4, 0x00000000)
T154C 000:740.759 - 0.021ms returns 0x00
T154C 000:740.771 JLINK_WriteReg(R5, 0x00000000)
T154C 000:740.787 - 0.021ms returns 0x00
T154C 000:740.799 JLINK_WriteReg(R6, 0x00000000)
T154C 000:740.894 - 0.101ms returns 0x00
T154C 000:740.907 JLINK_WriteReg(R7, 0x00000000)
T154C 000:740.925 - 0.024ms returns 0x00
T154C 000:740.937 JLINK_WriteReg(R8, 0x00000000)
T154C 000:740.953 - 0.021ms returns 0x00
T154C 000:740.966 JLINK_WriteReg(R9, 0x20000160)
T154C 000:740.982 - 0.022ms returns 0x00
T154C 000:740.994 JLINK_WriteReg(R10, 0x00000000)
T154C 000:741.010 - 0.022ms returns 0x00
T154C 000:741.023 JLINK_WriteReg(R11, 0x00000000)
T154C 000:741.039 - 0.022ms returns 0x00
T154C 000:741.052 JLINK_WriteReg(R12, 0x00000000)
T154C 000:741.068 - 0.022ms returns 0x00
T154C 000:741.080 JLINK_WriteReg(R13 (SP), 0x20001000)
T154C 000:741.096 - 0.022ms returns 0x00
T154C 000:741.109 JLINK_WriteReg(R14, 0x20000001)
T154C 000:741.125 - 0.022ms returns 0x00
T154C 000:741.137 JLINK_WriteReg(R15 (PC), 0x200000F4)
T154C 000:741.154 - 0.022ms returns 0x00
T154C 000:741.166 JLINK_WriteReg(XPSR, 0x01000000)
T154C 000:741.182 - 0.022ms returns 0x00
T154C 000:741.195 JLINK_WriteReg(MSP, 0x20001000)
T154C 000:741.211 - 0.022ms returns 0x00
T154C 000:741.224 JLINK_WriteReg(PSP, 0x20001000)
T154C 000:741.240 - 0.021ms returns 0x00
T154C 000:741.252 JLINK_WriteReg(CFBP, 0x00000000)
T154C 000:741.268 - 0.022ms returns 0x00
T154C 000:741.281   JLINK_SetBPEx(Addr = 0x20000000, Type = 0xFFFFFFF2)
T154C 000:741.304 - 0.028ms returns 0x0000000A
T154C 000:741.316 JLINK_Go()
T154C 000:741.337   CPU_ReadMem(4 bytes @ 0xE0001000)
T154C 000:744.160 - 2.852ms
T154C 000:744.183 JLINK_IsHalted()
T154C 000:744.731 - 0.564ms returns FALSE
T154C 000:746.537 JLINK_IsHalted()
T154C 000:747.531 - 1.010ms returns FALSE
T154C 000:761.511 JLINK_IsHalted()
T154C 000:762.207 - 0.717ms returns FALSE
T154C 000:777.077 JLINK_IsHalted()
T154C 000:780.371   CPU_ReadMem(2 bytes @ 0x20000000)
T154C 000:781.114 - 4.056ms returns TRUE
T154C 000:781.160 JLINK_ReadReg(R15 (PC))
T154C 000:781.339 - 0.198ms returns 0x20000000
T154C 000:781.369 JLINK_ClrBPEx(BPHandle = 0x0000000A)
T154C 000:781.389 - 0.024ms returns 0x00
T154C 000:781.401 JLINK_ReadReg(R0)
T154C 000:781.418 - 0.022ms returns 0x00000000
T154C 000:781.833 JLINK_WriteMem(0x20000164, 0x029C Bytes, ...)
T154C 000:781.849   Data:  01 20 01 F0 2D F8 16 A2 05 21 01 20 01 F0 28 F8 ...
T154C 000:781.879   CPU_WriteMem(668 bytes @ 0x20000164)
T154C 000:785.060 - 3.260ms returns 0x29C
T154C 000:785.126 JLINK_WriteMem(0x20000400, 0x0164 Bytes, ...)
T154C 000:785.139   Data:  BD FC 20 20 01 F0 8A FC C4 F3 07 40 01 F0 86 FC ...
T154C 000:785.179   CPU_WriteMem(356 bytes @ 0x20000400)
T154C 000:787.411 - 2.317ms returns 0x164
T154C 000:787.477 JLINK_WriteReg(R0, 0x08004800)
T154C 000:787.500 - 0.029ms returns 0x00
T154C 000:787.512 JLINK_WriteReg(R1, 0x00000400)
T154C 000:787.528 - 0.021ms returns 0x00
T154C 000:787.541 JLINK_WriteReg(R2, 0x20000164)
T154C 000:787.557 - 0.022ms returns 0x00
T154C 000:787.570 JLINK_WriteReg(R3, 0x00000000)
T154C 000:787.587 - 0.022ms returns 0x00
T154C 000:787.600 JLINK_WriteReg(R4, 0x00000000)
T154C 000:787.617 - 0.023ms returns 0x00
T154C 000:787.630 JLINK_WriteReg(R5, 0x00000000)
T154C 000:787.647 - 0.023ms returns 0x00
T154C 000:787.660 JLINK_WriteReg(R6, 0x00000000)
T154C 000:787.676 - 0.023ms returns 0x00
T154C 000:787.690 JLINK_WriteReg(R7, 0x00000000)
T154C 000:787.706 - 0.023ms returns 0x00
T154C 000:787.719 JLINK_WriteReg(R8, 0x00000000)
T154C 000:787.736 - 0.023ms returns 0x00
T154C 000:787.749 JLINK_WriteReg(R9, 0x20000160)
T154C 000:787.766 - 0.022ms returns 0x00
T154C 000:787.779 JLINK_WriteReg(R10, 0x00000000)
T154C 000:787.795 - 0.022ms returns 0x00
T154C 000:787.808 JLINK_WriteReg(R11, 0x00000000)
T154C 000:787.918 - 0.116ms returns 0x00
T154C 000:787.931 JLINK_WriteReg(R12, 0x00000000)
T154C 000:787.948 - 0.023ms returns 0x00
T154C 000:787.962 JLINK_WriteReg(R13 (SP), 0x20001000)
T154C 000:787.979 - 0.023ms returns 0x00
T154C 000:787.992 JLINK_WriteReg(R14, 0x20000001)
T154C 000:788.009 - 0.023ms returns 0x00
T154C 000:788.022 JLINK_WriteReg(R15 (PC), 0x200000F4)
T154C 000:788.039 - 0.023ms returns 0x00
T154C 000:788.052 JLINK_WriteReg(XPSR, 0x01000000)
T154C 000:788.086 - 0.040ms returns 0x00
T154C 000:788.099 JLINK_WriteReg(MSP, 0x20001000)
T154C 000:788.119 - 0.025ms returns 0x00
T154C 000:788.132 JLINK_WriteReg(PSP, 0x20001000)
T154C 000:788.149 - 0.023ms returns 0x00
T154C 000:788.162 JLINK_WriteReg(CFBP, 0x00000000)
T154C 000:788.179 - 0.022ms returns 0x00
T154C 000:788.192   JLINK_SetBPEx(Addr = 0x20000000, Type = 0xFFFFFFF2)
T154C 000:788.216 - 0.030ms returns 0x0000000B
T154C 000:788.229 JLINK_Go()
T154C 000:788.255   CPU_ReadMem(4 bytes @ 0xE0001000)
T154C 000:791.758 - 3.558ms
T154C 000:791.814 JLINK_IsHalted()
T154C 000:792.419 - 0.618ms returns FALSE
T154C 000:807.340 JLINK_IsHalted()
T154C 000:808.250 - 0.930ms returns FALSE
T154C 000:822.198 JLINK_IsHalted()
T154C 000:825.309   CPU_ReadMem(2 bytes @ 0x20000000)
T154C 000:826.259 - 4.076ms returns TRUE
T154C 000:826.298 JLINK_ReadReg(R15 (PC))
T154C 000:826.318 - 0.026ms returns 0x20000000
T154C 000:826.330 JLINK_ClrBPEx(BPHandle = 0x0000000B)
T154C 000:826.346 - 0.021ms returns 0x00
T154C 000:826.359 JLINK_ReadReg(R0)
T154C 000:826.375 - 0.021ms returns 0x00000000
T154C 000:826.815 JLINK_WriteMem(0x20000164, 0x029C Bytes, ...)
T154C 000:826.832   Data:  BC F1 48 0F 07 D1 00 F1 08 0C 4F F0 01 08 08 FA ...
T154C 000:826.860   CPU_WriteMem(668 bytes @ 0x20000164)
T154C 000:829.837 - 3.036ms returns 0x29C
T154C 000:829.875 JLINK_WriteMem(0x20000400, 0x0164 Bytes, ...)
T154C 000:829.887   Data:  38 BD 1C B5 04 46 01 A8 00 F0 52 F8 01 98 20 60 ...
T154C 000:829.984   CPU_WriteMem(356 bytes @ 0x20000400)
T154C 000:831.685 - 1.824ms returns 0x164
T154C 000:831.724 JLINK_WriteReg(R0, 0x08004C00)
T154C 000:831.743 - 0.025ms returns 0x00
T154C 000:831.755 JLINK_WriteReg(R1, 0x00000400)
T154C 000:831.798 - 0.049ms returns 0x00
T154C 000:831.811 JLINK_WriteReg(R2, 0x20000164)
T154C 000:831.826 - 0.020ms returns 0x00
T154C 000:831.838 JLINK_WriteReg(R3, 0x00000000)
T154C 000:831.854 - 0.022ms returns 0x00
T154C 000:831.867 JLINK_WriteReg(R4, 0x00000000)
T154C 000:831.883 - 0.022ms returns 0x00
T154C 000:831.896 JLINK_WriteReg(R5, 0x00000000)
T154C 000:831.912 - 0.022ms returns 0x00
T154C 000:831.925 JLINK_WriteReg(R6, 0x00000000)
T154C 000:831.941 - 0.022ms returns 0x00
T154C 000:831.953 JLINK_WriteReg(R7, 0x00000000)
T154C 000:831.972 - 0.024ms returns 0x00
T154C 000:831.984 JLINK_WriteReg(R8, 0x00000000)
T154C 000:832.000 - 0.024ms returns 0x00
T154C 000:832.015 JLINK_WriteReg(R9, 0x20000160)
T154C 000:832.032 - 0.022ms returns 0x00
T154C 000:832.045 JLINK_WriteReg(R10, 0x00000000)
T154C 000:832.061 - 0.022ms returns 0x00
T154C 000:832.074 JLINK_WriteReg(R11, 0x00000000)
T154C 000:832.090 - 0.022ms returns 0x00
T154C 000:832.103 JLINK_WriteReg(R12, 0x00000000)
T154C 000:832.120 - 0.022ms returns 0x00
T154C 000:832.132 JLINK_WriteReg(R13 (SP), 0x20001000)
T154C 000:832.151 - 0.024ms returns 0x00
T154C 000:832.164 JLINK_WriteReg(R14, 0x20000001)
T154C 000:832.180 - 0.022ms returns 0x00
T154C 000:832.193 JLINK_WriteReg(R15 (PC), 0x200000F4)
T154C 000:832.209 - 0.022ms returns 0x00
T154C 000:832.222 JLINK_WriteReg(XPSR, 0x01000000)
T154C 000:832.308 - 0.092ms returns 0x00
T154C 000:832.320 JLINK_WriteReg(MSP, 0x20001000)
T154C 000:832.337 - 0.022ms returns 0x00
T154C 000:832.350 JLINK_WriteReg(PSP, 0x20001000)
T154C 000:832.366 - 0.022ms returns 0x00
T154C 000:832.379 JLINK_WriteReg(CFBP, 0x00000000)
T154C 000:832.395 - 0.022ms returns 0x00
T154C 000:832.409   JLINK_SetBPEx(Addr = 0x20000000, Type = 0xFFFFFFF2)
T154C 000:832.432 - 0.029ms returns 0x0000000C
T154C 000:832.445 JLINK_Go()
T154C 000:832.467   CPU_ReadMem(4 bytes @ 0xE0001000)
T154C 000:835.491 - 3.059ms
T154C 000:835.528 JLINK_IsHalted()
T154C 000:835.937 - 0.424ms returns FALSE
T154C 000:852.198 JLINK_IsHalted()
T154C 000:853.191 - 1.007ms returns FALSE
T154C 000:866.807 JLINK_IsHalted()
T154C 000:869.906   CPU_ReadMem(2 bytes @ 0x20000000)
T154C 000:870.873 - 4.096ms returns TRUE
T154C 000:870.959 JLINK_ReadReg(R15 (PC))
T154C 000:870.982 - 0.029ms returns 0x20000000
T154C 000:870.997 JLINK_ClrBPEx(BPHandle = 0x0000000C)
T154C 000:871.015 - 0.023ms returns 0x00
T154C 000:871.030 JLINK_ReadReg(R0)
T154C 000:871.047 - 0.023ms returns 0x00000000
T154C 000:871.467 JLINK_WriteMem(0x20000164, 0x029C Bytes, ...)
T154C 000:871.483   Data:  85 FD 4F F4 00 41 0E 48 FF F7 5F FE 4F F4 80 41 ...
T154C 000:871.515   CPU_WriteMem(668 bytes @ 0x20000164)
T154C 000:874.279 - 2.828ms returns 0x29C
T154C 000:874.315 JLINK_WriteMem(0x20000400, 0x0164 Bytes, ...)
T154C 000:874.328   Data:  00 61 07 48 FF F7 08 FD 00 28 F0 D1 4F F4 80 61 ...
T154C 000:874.355   CPU_WriteMem(356 bytes @ 0x20000400)
T154C 000:876.200 - 1.892ms returns 0x164
T154C 000:876.226 JLINK_WriteReg(R0, 0x08005000)
T154C 000:876.245 - 0.026ms returns 0x00
T154C 000:876.262 JLINK_WriteReg(R1, 0x00000400)
T154C 000:876.344 - 0.089ms returns 0x00
T154C 000:876.358 JLINK_WriteReg(R2, 0x20000164)
T154C 000:876.376 - 0.023ms returns 0x00
T154C 000:876.389 JLINK_WriteReg(R3, 0x00000000)
T154C 000:876.406 - 0.023ms returns 0x00
T154C 000:876.420 JLINK_WriteReg(R4, 0x00000000)
T154C 000:876.437 - 0.023ms returns 0x00
T154C 000:876.451 JLINK_WriteReg(R5, 0x00000000)
T154C 000:876.544 - 0.099ms returns 0x00
T154C 000:876.557 JLINK_WriteReg(R6, 0x00000000)
T154C 000:876.574 - 0.023ms returns 0x00
T154C 000:876.588 JLINK_WriteReg(R7, 0x00000000)
T154C 000:876.605 - 0.023ms returns 0x00
T154C 000:876.619 JLINK_WriteReg(R8, 0x00000000)
T154C 000:876.636 - 0.023ms returns 0x00
T154C 000:876.649 JLINK_WriteReg(R9, 0x20000160)
T154C 000:876.666 - 0.023ms returns 0x00
T154C 000:876.680 JLINK_WriteReg(R10, 0x00000000)
T154C 000:876.697 - 0.023ms returns 0x00
T154C 000:876.711 JLINK_WriteReg(R11, 0x00000000)
T154C 000:876.728 - 0.023ms returns 0x00
T154C 000:876.742 JLINK_WriteReg(R12, 0x00000000)
T154C 000:876.759 - 0.024ms returns 0x00
T154C 000:876.773 JLINK_WriteReg(R13 (SP), 0x20001000)
T154C 000:876.790 - 0.022ms returns 0x00
T154C 000:876.802 JLINK_WriteReg(R14, 0x20000001)
T154C 000:876.819 - 0.022ms returns 0x00
T154C 000:876.832 JLINK_WriteReg(R15 (PC), 0x200000F4)
T154C 000:876.848 - 0.022ms returns 0x00
T154C 000:876.860 JLINK_WriteReg(XPSR, 0x01000000)
T154C 000:876.877 - 0.022ms returns 0x00
T154C 000:876.890 JLINK_WriteReg(MSP, 0x20001000)
T154C 000:876.906 - 0.022ms returns 0x00
T154C 000:876.919 JLINK_WriteReg(PSP, 0x20001000)
T154C 000:876.935 - 0.024ms returns 0x00
T154C 000:876.951 JLINK_WriteReg(CFBP, 0x00000000)
T154C 000:876.968 - 0.022ms returns 0x00
T154C 000:876.981   JLINK_SetBPEx(Addr = 0x20000000, Type = 0xFFFFFFF2)
T154C 000:877.005 - 0.029ms returns 0x0000000D
T154C 000:877.017 JLINK_Go()
T154C 000:877.113   CPU_ReadMem(4 bytes @ 0xE0001000)
T154C 000:879.989 - 2.980ms
T154C 000:880.015 JLINK_IsHalted()
T154C 000:880.458 - 0.450ms returns FALSE
T154C 000:882.471 JLINK_IsHalted()
T154C 000:882.968 - 0.511ms returns FALSE
T154C 000:897.545 JLINK_IsHalted()
T154C 000:898.640 - 1.128ms returns FALSE
T154C 000:912.578 JLINK_IsHalted()
T154C 000:915.893   CPU_ReadMem(2 bytes @ 0x20000000)
T154C 000:916.944 - 4.383ms returns TRUE
T154C 000:916.999 JLINK_ReadReg(R15 (PC))
T154C 000:917.021 - 0.027ms returns 0x20000000
T154C 000:917.033 JLINK_ClrBPEx(BPHandle = 0x0000000D)
T154C 000:917.049 - 0.022ms returns 0x00
T154C 000:917.062 JLINK_ReadReg(R0)
T154C 000:917.078 - 0.022ms returns 0x00000000
T154C 000:917.497 JLINK_WriteMem(0x20000164, 0x029C Bytes, ...)
T154C 000:917.513   Data:  04 EB 44 00 73 49 11 F8 30 00 30 B1 01 28 3D D0 ...
T154C 000:917.545   CPU_WriteMem(668 bytes @ 0x20000164)
T154C 000:921.153 - 3.704ms returns 0x29C
T154C 000:921.232 JLINK_WriteMem(0x20000400, 0x0164 Bytes, ...)
T154C 000:921.244   Data:  FF F7 15 FB 00 25 17 E0 10 21 10 48 FF F7 0D FB ...
T154C 000:921.278   CPU_WriteMem(356 bytes @ 0x20000400)
T154C 000:923.375 - 2.174ms returns 0x164
T154C 000:923.440 JLINK_WriteReg(R0, 0x08005400)
T154C 000:923.463 - 0.028ms returns 0x00
T154C 000:923.475 JLINK_WriteReg(R1, 0x00000400)
T154C 000:923.490 - 0.021ms returns 0x00
T154C 000:923.502 JLINK_WriteReg(R2, 0x20000164)
T154C 000:923.518 - 0.021ms returns 0x00
T154C 000:923.529 JLINK_WriteReg(R3, 0x00000000)
T154C 000:923.545 - 0.021ms returns 0x00
